<Qucs Dataset 0.0.19>
<indep S11_In_Band 1>
  +7.47231040019e+00
</indep>
<indep Right_Side_Lobe 1>
  -2.27352005628e+01
</indep>
<indep Pass_Band_Ripple 1>
  -8.56385153107e-01
</indep>
<indep Left_Side_Lobe 1>
  -2.31169793332e+01
</indep>
<indep frequency 200>
  +8.00000000000e+08
  +8.01631672197e+08
  +8.03266672337e+08
  +8.04905007207e+08
  +8.06546683609e+08
  +8.08191708358e+08
  +8.09840088284e+08
  +8.11491830229e+08
  +8.13146941051e+08
  +8.14805427621e+08
  +8.16467296824e+08
  +8.18132555559e+08
  +8.19801210739e+08
  +8.21473269293e+08
  +8.23148738160e+08
  +8.24827624298e+08
  +8.26509934676e+08
  +8.28195676277e+08
  +8.29884856100e+08
  +8.31577481159e+08
  +8.33273558478e+08
  +8.34973095101e+08
  +8.36676098081e+08
  +8.38382574490e+08
  +8.40092531412e+08
  +8.41805975945e+08
  +8.43522915203e+08
  +8.45243356314e+08
  +8.46967306419e+08
  +8.48694772676e+08
  +8.50425762257e+08
  +8.52160282347e+08
  +8.53898340147e+08
  +8.55639942873e+08
  +8.57385097755e+08
  +8.59133812038e+08
  +8.60886092981e+08
  +8.62641947859e+08
  +8.64401383962e+08
  +8.66164408594e+08
  +8.67931029074e+08
  +8.69701252735e+08
  +8.71475086928e+08
  +8.73252539015e+08
  +8.75033616376e+08
  +8.76818326405e+08
  +8.78606676512e+08
  +8.80398674119e+08
  +8.82194326668e+08
  +8.83993641612e+08
  +8.85796626422e+08
  +8.87603288581e+08
  +8.89413635591e+08
  +8.91227674967e+08
  +8.93045414240e+08
  +8.94866860957e+08
  +8.96692022678e+08
  +8.98520906982e+08
  +9.00353521460e+08
  +9.02189873721e+08
  +9.04029971387e+08
  +9.05873822099e+08
  +9.07721433512e+08
  +9.09572813294e+08
  +9.11427969132e+08
  +9.13286908728e+08
  +9.15149639799e+08
  +9.17016170079e+08
  +9.18886507315e+08
  +9.20760659273e+08
  +9.22638633733e+08
  +9.24520438491e+08
  +9.26406081360e+08
  +9.28295570168e+08
  +9.30188912759e+08
  +9.32086116992e+08
  +9.33987190745e+08
  +9.35892141910e+08
  +9.37800978394e+08
  +9.39713708123e+08
  +9.41630339036e+08
  +9.43550879091e+08
  +9.45475336261e+08
  +9.47403718535e+08
  +9.49336033919e+08
  +9.51272290434e+08
  +9.53212496120e+08
  +9.55156659030e+08
  +9.57104787235e+08
  +9.59056888824e+08
  +9.61012971900e+08
  +9.62973044584e+08
  +9.64937115013e+08
  +9.66905191342e+08
  +9.68877281739e+08
  +9.70853394393e+08
  +9.72833537507e+08
  +9.74817719301e+08
  +9.76805948014e+08
  +9.78798231898e+08
  +9.80794579225e+08
  +9.82794998282e+08
  +9.84799497375e+08
  +9.86808084824e+08
  +9.88820768969e+08
  +9.90837558165e+08
  +9.92858460784e+08
  +9.94883485217e+08
  +9.96912639870e+08
  +9.98945933167e+08
  +1.00098337355e+09
  +1.00302496947e+09
  +1.00507072942e+09
  +1.00712066188e+09
  +1.00917477535e+09
  +1.01123307838e+09
  +1.01329557951e+09
  +1.01536228729e+09
  +1.01743321030e+09
  +1.01950835716e+09
  +1.02158773646e+09
  +1.02367135684e+09
  +1.02575922696e+09
  +1.02785135547e+09
  +1.02994775107e+09
  +1.03204842246e+09
  +1.03415337835e+09
  +1.03626262750e+09
  +1.03837617865e+09
  +1.04049404057e+09
  +1.04261622207e+09
  +1.04474273195e+09
  +1.04687357903e+09
  +1.04900877217e+09
  +1.05114832023e+09
  +1.05329223209e+09
  +1.05544051666e+09
  +1.05759318284e+09
  +1.05975023958e+09
  +1.06191169583e+09
  +1.06407756057e+09
  +1.06624784278e+09
  +1.06842255148e+09
  +1.07060169570e+09
  +1.07278528448e+09
  +1.07497332688e+09
  +1.07716583199e+09
  +1.07936280892e+09
  +1.08156426677e+09
  +1.08377021470e+09
  +1.08598066186e+09
  +1.08819561743e+09
  +1.09041509060e+09
  +1.09263909058e+09
  +1.09486762661e+09
  +1.09710070794e+09
  +1.09933834385e+09
  +1.10158054361e+09
  +1.10382731654e+09
  +1.10607867197e+09
  +1.10833461924e+09
  +1.11059516772e+09
  +1.11286032679e+09
  +1.11513010586e+09
  +1.11740451435e+09
  +1.11968356170e+09
  +1.12196725737e+09
  +1.12425561084e+09
  +1.12654863162e+09
  +1.12884632922e+09
  +1.13114871319e+09
  +1.13345579307e+09
  +1.13576757845e+09
  +1.13808407892e+09
  +1.14040530411e+09
  +1.14273126365e+09
  +1.14506196719e+09
  +1.14739742441e+09
  +1.14973764500e+09
  +1.15208263869e+09
  +1.15443241520e+09
  +1.15678698429e+09
  +1.15914635574e+09
  +1.16151053935e+09
  +1.16387954491e+09
  +1.16625338228e+09
  +1.16863206130e+09
  +1.17101559186e+09
  +1.17340398384e+09
  +1.17579724716e+09
  +1.17819539176e+09
  +1.18059842758e+09
  +1.18300636462e+09
  +1.18541921287e+09
  +1.18783698233e+09
  +1.19025968305e+09
  +1.19268732509e+09
  +1.19511991853e+09
  +1.19755747346e+09
  +1.20000000000e+09
</indep>
<dep S[2,2] frequency>
  -9.73884343079e-01+j2.26962451144e-01
  -9.73359541416e-01+j2.29197777755e-01
  -9.72818758992e-01+j2.31477150720e-01
  -9.72261330058e-01+j2.33801911538e-01
  -9.71686553262e-01+j2.36173457429e-01
  -9.71093689304e-01+j2.38593244290e-01
  -9.70481958397e-01+j2.41062789837e-01
  -9.69850537538e-01+j2.43583676963e-01
  -9.69198557547e-01+j2.46157557311e-01
  -9.68525099871e-01+j2.48786155087e-01
  -9.67829193117e-01+j2.51471271133e-01
  -9.67109809295e-01+j2.54214787286e-01
  -9.66365859741e-01+j2.57018671027e-01
  -9.65596190685e-01+j2.59884980465e-01
  -9.64799578427e-01+j2.62815869677e-01
  -9.63974724096e-01+j2.65813594426e-01
  -9.63120247917e-01+j2.68880518299e-01
  -9.62234682969e-01+j2.72019119300e-01
  -9.61316468353e-01+j2.75231996929e-01
  -9.60363941717e-01+j2.78521879801e-01
  -9.59375331065e-01+j2.81891633847e-01
  -9.58348745770e-01+j2.85344271149e-01
  -9.57282166692e-01+j2.88882959470e-01
  -9.56173435312e-01+j2.92511032537e-01
  -9.55020241748e-01+j2.96232001155e-01
  -9.53820111525e-01+j3.00049565227e-01
  -9.52570390960e-01+j3.03967626760e-01
  -9.51268230957e-01+j3.07990303964e-01
  -9.49910569049e-01+j3.12121946536e-01
  -9.48494109429e-01+j3.16367152257e-01
  -9.47015300719e-01+j3.20730785026e-01
  -9.45470311179e-01+j3.25217994475e-01
  -9.43855000996e-01+j3.29834237322e-01
  -9.42164891246e-01+j3.34585300644e-01
  -9.40395129078e-01+j3.39477327257e-01
  -9.38540448537e-01+j3.44516843425e-01
  -9.36595126425e-01+j3.49710789133e-01
  -9.34552932420e-01+j3.55066551191e-01
  -9.32407072585e-01+j3.60591999447e-01
  -9.30150125236e-01+j3.66295526448e-01
  -9.27773967930e-01+j3.72186090869e-01
  -9.25269694139e-01+j3.78273265103e-01
  -9.22627517862e-01+j3.84567287419e-01
  -9.19836664137e-01+j3.91079119096e-01
  -9.16885242969e-01+j3.97820507005e-01
  -9.13760103716e-01+j4.04804052084e-01
  -9.10446666357e-01+j4.12043284157e-01
  -9.06928725296e-01+j4.19552743512e-01
  -9.03188220452e-01+j4.27348069588e-01
  -8.99204969193e-01+j4.35446096959e-01
  -8.94956351227e-01+j4.43864958612e-01
  -8.90416936758e-01+j4.52624196147e-01
  -8.85558045900e-01+j4.61744875968e-01
  -8.80347224471e-01+j4.71249709720e-01
  -8.74747617591e-01+j4.81163175978e-01
  -8.68717217842e-01+j4.91511638354e-01
  -8.62207958784e-01+j5.02323452439e-01
  -8.55164616916e-01+j5.13629049965e-01
  -8.47523475395e-01+j5.25460982620e-01
  -8.39210690109e-01+j5.37853899082e-01
  -8.30140282472e-01+j5.50844415751e-01
  -8.20211662421e-01+j5.64470822142e-01
  -8.09306558435e-01+j5.78772532699e-01
  -7.97285197798e-01+j5.93789152942e-01
  -7.83981538537e-01+j6.09558961617e-01
  -7.69197304458e-01+j6.26116509978e-01
  -7.52694518090e-01+j6.43488885929e-01
  -7.34186170246e-01+j6.61689955899e-01
  -7.13324627050e-01+j6.80711536688e-01
  -6.89687396465e-01+j7.00509896109e-01
  -6.62760044290e-01+j7.20985135911e-01
  -6.31916545466e-01+j7.41949735739e-01
  -5.96398545606e-01+j7.63080665283e-01
  -5.55297604396e-01+j7.83846869785e-01
  -5.07549843972e-01+j8.03400723448e-01
  -4.51962915312e-01+j8.20419236102e-01
  -3.87314546421e-01+j8.32881883320e-01
  -3.12594317827e-01+j8.37786397458e-01
  -2.27504664682e-01+j8.30853329771e-01
  -1.33367894889e-01+j8.06393365455e-01
  -3.45089294507e-02+j7.57744711848e-01
  +6.02104141329e-02+j6.78955836056e-01
  +1.36928034541e-01+j5.68245527473e-01
  +1.79484427617e-01+j4.32345111206e-01
  +1.76203098185e-01+j2.88195377204e-01
  +1.27128551033e-01+j1.58119957683e-01
  +4.50700633832e-02+j6.02010195660e-02
  -5.10960183839e-02+j1.48819377709e-03
  -1.44734586142e-01-j2.13782098226e-02
  -2.25538199653e-01-j1.70745964995e-02
  -2.89176124658e-01+j5.07712456749e-03
  -3.35154317154e-01+j3.74240345120e-02
  -3.64833304382e-01+j7.44569953080e-02
  -3.80185047818e-01+j1.12455381854e-01
  -3.83181860451e-01+j1.48943407398e-01
  -3.75571668059e-01+j1.82218256236e-01
  -3.58852390475e-01+j2.11010038931e-01
  -3.34337651295e-01+j2.34261530694e-01
  -3.03259696921e-01+j2.51001902219e-01
  -2.66883271382e-01+j2.60294334031e-01
  -2.26614937488e-01+j2.61246116130e-01
  -1.84093147915e-01+j2.53075361574e-01
  -1.41240427028e-01+j2.35228176506e-01
  -1.00255068621e-01+j2.07532856361e-01
  -6.35211403211e-02+j1.70364206116e-01
  -3.34275061160e-02+j1.24775787571e-01
  -1.21109535424e-02+j7.25494510869e-02
  -1.16986323058e-03+j1.61201563390e-02
  -1.41917453462e-03-j4.16353080717e-02
  -1.27581890309e-02-j9.77122746291e-02
  -3.41929548534e-02-j1.49322478600e-01
  -6.40053770603e-02-j1.94184417016e-01
  -1.00015667909e-01-j2.30697419139e-01
  -1.39864292740e-01-j2.57980064041e-01
  -1.81248969955e-01-j2.75795300348e-01
  -2.22080236731e-01-j2.84408319951e-01
  -2.60548980121e-01-j2.84425717296e-01
  -2.95119779801e-01-j2.76653069230e-01
  -3.24472179008e-01-j2.61992892889e-01
  -3.47411395348e-01-j2.41393195437e-01
  -3.62765807344e-01-j2.15851486828e-01
  -3.69285750676e-01-j1.86480127872e-01
  -3.65561152719e-01-j1.54644547402e-01
  -3.49989407881e-01-j1.22192750135e-01
  -3.20856399658e-01-j9.17944652405e-02
  -2.76648473124e-01-j6.73809126104e-02
  -2.16780558582e-01-j5.45782224073e-02
  -1.42931743235e-01-j6.07965918550e-02
  -6.09131846856e-02-j9.42780349662e-02
  +1.78443146256e-02-j1.61263852748e-01
  +7.72757689509e-02-j2.61446682208e-01
  +1.01934741739e-01-j3.84497829565e-01
  +8.44974595593e-02-j5.11989385652e-01
  +2.94432360818e-02-j6.25071220261e-01
  -5.04369977874e-02-j7.11989884259e-01
  -1.40938599181e-01-j7.70044300793e-01
  -2.31245067769e-01-j8.02745777322e-01
  -3.15090971891e-01-j8.16004877263e-01
  -3.89807871481e-01-j8.15626939056e-01
  -4.54921817093e-01-j8.06290336167e-01
  -5.11059368917e-01-j7.91402730286e-01
  -5.59279279299e-01-j7.73306550763e-01
  -6.00722080673e-01-j7.53554742438e-01
  -6.36450644408e-01-j7.33150517693e-01
  -6.67392096524e-01-j7.12727094891e-01
  -6.94328482570e-01-j6.92673450186e-01
  -7.17908253741e-01-j6.73219242935e-01
  -7.38664794712e-01-j6.54491126286e-01
  -7.57035691266e-01-j6.36549741182e-01
  -7.73380172426e-01-j6.19413913596e-01
  -7.87993933308e-01-j6.03076447846e-01
  -8.01121328086e-01-j5.87514417909e-01
  -8.12965226992e-01-j5.72695856660e-01
  -8.23694914621e-01-j5.58584083381e-01
  -8.33452394918e-01-j5.45140479843e-01
  -8.42357421322e-01-j5.32326245655e-01
  -8.50511515645e-01-j5.20103481727e-01
  -8.58001187927e-01-j5.08435832022e-01
  -8.64900525497e-01-j4.97288836028e-01
  -8.71273283538e-01-j4.86630093184e-01
  -8.77174580757e-01-j4.76429306640e-01
  -8.82652281220e-01-j4.66658251222e-01
  -8.87748125832e-01-j4.57290695443e-01
  -8.92498663242e-01-j4.48302297329e-01
  -8.96936019396e-01-j4.39670487064e-01
  -9.01088536651e-01-j4.31374344917e-01
  -9.04981307005e-01-j4.23394479833e-01
  -9.08636618955e-01-j4.15712912017e-01
  -9.12074333606e-01-j4.08312961469e-01
  -9.15312202538e-01-j4.01179143493e-01
  -9.18366137564e-01-j3.94297071629e-01
  -9.21250440538e-01-j3.87653368026e-01
  -9.23977999868e-01-j3.81235581090e-01
  -9.26560459188e-01-j3.75032110020e-01
  -9.29008362612e-01-j3.69032135839e-01
  -9.31331280273e-01-j3.63225558432e-01
  -9.33537917152e-01-j3.57602939134e-01
  -9.35636207732e-01-j3.52155448392e-01
  -9.37633398562e-01-j3.46874818057e-01
  -9.39536120489e-01-j3.41753297911e-01
  -9.41350452027e-01-j3.36783616005e-01
  -9.43081975095e-01-j3.31958942488e-01
  -9.44735824179e-01-j3.27272856577e-01
  -9.46316729789e-01-j3.22719316387e-01
  -9.47829056986e-01-j3.18292631335e-01
  -9.49276839588e-01-j3.13987436900e-01
  -9.50663810639e-01-j3.09798671489e-01
  -9.51993429583e-01-j3.05721555234e-01
  -9.53268906563e-01-j3.01751570532e-01
  -9.54493224191e-01-j2.97884444167e-01
  -9.55669157086e-01-j2.94116130870e-01
  -9.56799289441e-01-j2.90442798184e-01
  -9.57886030859e-01-j2.86860812522e-01
  -9.58931630631e-01-j2.83366726305e-01
  -9.59938190656e-01-j2.79957266088e-01
  -9.60907677132e-01-j2.76629321588e-01
  -9.61841931157e-01-j2.73379935529e-01
  -9.62742678370e-01-j2.70206294246e-01
  -9.63611537704e-01-j2.67105718972e-01
  -9.64450029373e-01-j2.64075657757e-01
</dep>
<dep S[2,1] frequency>
  -1.44555819053e-03-j5.93653420924e-03
  -1.50304991028e-03-j6.10922635730e-03
  -1.56341714807e-03-j6.28860675540e-03
  -1.62683463477e-03-j6.47500153903e-03
  -1.69348966789e-03-j6.66875608476e-03
  -1.76358316045e-03-j6.87023634477e-03
  -1.83733078976e-03-j7.07983028771e-03
  -1.91496425703e-03-j7.29794945577e-03
  -1.99673266992e-03-j7.52503064818e-03
  -2.08290406136e-03-j7.76153774303e-03
  -2.17376706009e-03-j8.00796367004e-03
  -2.26963272988e-03-j8.26483254852e-03
  -2.37083659667e-03-j8.53270200600e-03
  -2.47774088545e-03-j8.81216569484e-03
  -2.59073699135e-03-j9.10385602582e-03
  -2.71024821259e-03-j9.40844713975e-03
  -2.83673277696e-03-j9.72665814047e-03
  -2.97068719711e-03-j1.00592566150e-02
  -3.11264999547e-03-j1.04070624696e-02
  -3.26320584472e-03-j1.07709521135e-02
  -3.42299017624e-03-j1.11518630256e-02
  -3.59269431668e-03-j1.15507987433e-02
  -3.77307122108e-03-j1.19688343179e-02
  -3.96494188118e-03-j1.24071222832e-02
  -4.16920249891e-03-j1.28668991942e-02
  -4.38683252900e-03-j1.33494927941e-02
  -4.61890370986e-03-j1.38563298770e-02
  -4.86659022087e-03-j1.43889449227e-02
  -5.13118012530e-03-j1.49489895854e-02
  -5.41408828399e-03-j1.55382431306e-02
  -5.71687095425e-03-j1.61586239242e-02
  -6.04124232413e-03-j1.68122020894e-02
  -6.38909327376e-03-j1.75012134610e-02
  -6.76251270466e-03-j1.82280749813e-02
  -7.16381183720e-03-j1.89954016978e-02
  -7.59555194602e-03-j1.98060255415e-02
  -8.06057608728e-03-j2.06630160823e-02
  -8.56204547188e-03-j2.15697034816e-02
  -9.10348125966e-03-j2.25297038819e-02
  -9.68881269513e-03-j2.35469474982e-02
  -1.03224326813e-02-j2.46257096992e-02
  -1.10092621019e-02-j2.57706453889e-02
  -1.17548244627e-02-j2.69868270214e-02
  -1.25653327393e-02-j2.82797865977e-02
  -1.34477907097e-02-j2.96555620028e-02
  -1.44101115258e-02-j3.11207480382e-02
  -1.54612568729e-02-j3.26825524819e-02
  -1.66114007926e-02-j3.43488574547e-02
  -1.78721231587e-02-j3.61282862754e-02
  -1.92566389273e-02-j3.80302758200e-02
  -2.07800707044e-02-j4.00651541411e-02
  -2.24597739601e-02-j4.22442226960e-02
  -2.43157264740e-02-j4.45798419192e-02
  -2.63709964485e-02-j4.70855179594e-02
  -2.86523073553e-02-j4.97759870380e-02
  -3.11907222055e-02-j5.26672918863e-02
  -3.40224758459e-02-j5.57768417676e-02
  -3.71899914654e-02-j5.91234432602e-02
  -4.07431272273e-02-j6.27272826041e-02
  -4.47407114492e-02-j6.66098310242e-02
  -4.92524408008e-02-j7.07936305604e-02
  -5.43612365281e-02-j7.53018973348e-02
  -6.01661798096e-02-j8.01578484823e-02
  -6.67861801155e-02-j8.53836129836e-02
  -7.43645706983e-02-j9.09985174032e-02
  -8.30748729690e-02-j9.70164327731e-02
  -9.31280239270e-02-j1.03441709587e-01
  -1.04781409911e-01-j1.10262984806e-01
  -1.18350075795e-01-j1.17443773027e-01
  -1.34220437039e-01-j1.24908185847e-01
  -1.52866619022e-01-j1.32519260022e-01
  -1.74868992270e-01-j1.40046080792e-01
  -2.00933181589e-01-j1.47114002076e-01
  -2.31905060890e-01-j1.53129677117e-01
  -2.68771619979e-01-j1.57169493674e-01
  -3.12626683397e-01-j1.57817480163e-01
  -3.64560559675e-01-j1.52940540397e-01
  -4.25399831928e-01-j1.39404905557e-01
  -4.95179503995e-01-j1.12790206933e-01
  -5.72202235064e-01-j6.72855627216e-02
  -6.51626862807e-01+j3.81013411874e-03
  -7.23943509719e-01+j1.06298981424e-01
  -7.74613211320e-01+j2.41499703340e-01
  -7.87000351395e-01+j4.01862528689e-01
  -7.49415482979e-01+j5.69449143137e-01
  -6.62405145227e-01+j7.21148968017e-01
  -5.39494343714e-01+j8.38624099183e-01
  -4.00050509476e-01+j9.15066430404e-01
  -2.60744395980e-01+j9.54257424223e-01
  -1.31516976775e-01+j9.65165407312e-01
  -1.61069974850e-02+j9.57126928033e-01
  +8.56549065083e-02+j9.37514939788e-01
  +1.75771982824e-01+j9.11294148954e-01
  +2.56788579434e-01+j8.81403847269e-01
  +3.31143538593e-01+j8.49312357182e-01
  +4.00904204884e-01+j8.15486509853e-01
  +4.67682648107e-01+j7.79726019818e-01
  +5.32620967405e-01+j7.41387061692e-01
  +5.96390931484e-01+j6.99535172918e-01
  +6.59186933242e-01+j6.53064136337e-01
  +7.20710610203e-01+j6.00809747970e-01
  +7.80158096412e-01+j5.41678796758e-01
  +8.36230104816e-01+j4.74803178749e-01
  +8.87190476230e-01+j3.99715015522e-01
  +9.30997137252e-01+j3.16520824646e-01
  +9.65516338674e-01+j2.26034962838e-01
  +9.88805273770e-01+j1.29823081603e-01
  +9.99415753506e-01+j3.01151726431e-02
  +9.96647085311e-01-j7.04206958730e-02
  +9.80676356084e-01-j1.69007173271e-01
  +9.52525618982e-01-j2.63113253954e-01
  +9.13876358876e-01-j3.50750231051e-01
  +8.66787381785e-01-j4.30645099535e-01
  +8.13391730174e-01-j5.02272992962e-01
  +7.55637061437e-01-j5.65772387607e-01
  +6.95104191773e-01-j6.21789706071e-01
  +6.32907342385e-01-j6.71300630309e-01
  +5.69658569719e-01-j7.15441478250e-01
  +5.05470667182e-01-j7.55365430599e-01
  +4.39974460095e-01-j7.92121911099e-01
  +3.72333602359e-01-j8.26545094481e-01
  +3.01250308939e-01-j8.59128306844e-01
  +2.24969773950e-01-j8.89853194853e-01
  +1.41314049947e-01-j9.17936100975e-01
  +4.78164787895e-02-j9.41455538677e-01
  -5.79057653126e-02-j9.56855452656e-01
  -1.77319353708e-01-j9.58428533517e-01
  -3.09438304534e-01-j9.38148296850e-01
  -4.48617822200e-01-j8.86647216010e-01
  -5.82657090265e-01-j7.96358126345e-01
  -6.93602478073e-01-j6.66775592165e-01
  -7.63484525971e-01-j5.08784931075e-01
  -7.82991328477e-01-j3.43003830646e-01
  -7.56188022072e-01-j1.91307973501e-01
  -6.97063175053e-01-j6.80400172871e-02
  -6.21814626613e-01+j2.26860355233e-02
  -5.43190291706e-01+j8.40787881709e-02
  -4.68903562579e-01+j1.22405754424e-01
  -4.02548426904e-01+j1.44073882486e-01
  -3.45127136964e-01+j1.54367397683e-01
  -2.96287155110e-01+j1.57206748124e-01
  -2.55097559691e-01+j1.55334803999e-01
  -2.20468315116e-01+j1.50605291974e-01
  -1.91349554892e-01+j1.44243694774e-01
  -1.66811226557e-01+j1.37047044476e-01
  -1.46063402032e-01+j1.29525797761e-01
  -1.28449959724e-01+j1.22000811471e-01
  -1.13432175752e-01+j1.14668339877e-01
  -1.00570049368e-01+j1.07643180557e-01
  -8.95047422229e-02+j1.00987195537e-01
  -7.99433472467e-02+j9.47281391860e-02
  -7.16462078073e-02+j8.88720841477e-02
  -6.44165911247e-02+j8.34116194185e-02
  -5.80923788106e-02+j7.83312514020e-02
  -5.25394204316e-02+j7.36109498863e-02
  -4.76462294544e-02+j6.92284605469e-02
  -4.33197501923e-02+j6.51607956799e-02
  -3.94819741062e-02+j6.13851769735e-02
  -3.60672280074e-02+j5.78796131652e-02
  -3.30199936756e-02+j5.46232351495e-02
  -3.02931483266e-02+j5.15964709427e-02
  -2.78465391389e-02+j4.87811160288e-02
  -2.56458237386e-02+j4.61603365242e-02
  -2.36615231482e-02+j4.37186303878e-02
  -2.18682450937e-02+j4.14417636171e-02
  -2.02440444378e-02+j3.93166927452e-02
  -1.87698944241e-02+j3.73314811186e-02
  -1.74292478241e-02+j3.54752138237e-02
  -1.62076713146e-02+j3.37379143533e-02
  -1.50925397359e-02+j3.21104648998e-02
  -1.40727795053e-02+j3.05845313473e-02
  -1.31386525338e-02+j2.91524934910e-02
  -1.22815736391e-02+j2.78073806577e-02
  -1.14939557592e-02+j2.65428126657e-02
  -1.07690783224e-02+j2.53529459239e-02
  -1.01009749664e-02+j2.42324243817e-02
  -9.48433748345e-03+j2.31763350003e-02
  -8.91443341094e-03+j2.21801673958e-02
  -8.38703513718e-03+j2.12397773072e-02
  -7.89835875012e-03+j2.03513535500e-02
  -7.44501115589e-03+j1.95113881362e-02
  -7.02394423511e-03+j1.87166492616e-02
  -6.63241500540e-03+j1.79641568834e-02
  -6.26795092289e-03+j1.72511606357e-02
  -5.92831959216e-03+j1.65751198512e-02
  -5.61150226710e-03+j1.59336854802e-02
