<Qucs Dataset 0.0.18>
<indep S11_In_Band 1>
  +6.52642783632e+00
</indep>
<indep Right_Side_Lobe 1>
  -2.12846375198e+01
</indep>
<indep Pass_Band_Ripple 1>
  -1.09307386838e+00
</indep>
<indep Left_Side_Lobe 1>
  -2.47606294705e+01
</indep>
<indep frequency 200>
  +8.00000000000e+08
  +8.01631672197e+08
  +8.03266672337e+08
  +8.04905007207e+08
  +8.06546683609e+08
  +8.08191708358e+08
  +8.09840088284e+08
  +8.11491830229e+08
  +8.13146941051e+08
  +8.14805427621e+08
  +8.16467296824e+08
  +8.18132555559e+08
  +8.19801210739e+08
  +8.21473269293e+08
  +8.23148738160e+08
  +8.24827624298e+08
  +8.26509934676e+08
  +8.28195676277e+08
  +8.29884856100e+08
  +8.31577481159e+08
  +8.33273558478e+08
  +8.34973095101e+08
  +8.36676098081e+08
  +8.38382574490e+08
  +8.40092531412e+08
  +8.41805975945e+08
  +8.43522915203e+08
  +8.45243356314e+08
  +8.46967306419e+08
  +8.48694772676e+08
  +8.50425762257e+08
  +8.52160282347e+08
  +8.53898340147e+08
  +8.55639942873e+08
  +8.57385097755e+08
  +8.59133812038e+08
  +8.60886092981e+08
  +8.62641947859e+08
  +8.64401383962e+08
  +8.66164408594e+08
  +8.67931029074e+08
  +8.69701252735e+08
  +8.71475086928e+08
  +8.73252539015e+08
  +8.75033616376e+08
  +8.76818326405e+08
  +8.78606676512e+08
  +8.80398674119e+08
  +8.82194326668e+08
  +8.83993641612e+08
  +8.85796626422e+08
  +8.87603288581e+08
  +8.89413635591e+08
  +8.91227674967e+08
  +8.93045414240e+08
  +8.94866860957e+08
  +8.96692022678e+08
  +8.98520906982e+08
  +9.00353521460e+08
  +9.02189873721e+08
  +9.04029971387e+08
  +9.05873822099e+08
  +9.07721433512e+08
  +9.09572813294e+08
  +9.11427969132e+08
  +9.13286908728e+08
  +9.15149639799e+08
  +9.17016170079e+08
  +9.18886507315e+08
  +9.20760659273e+08
  +9.22638633733e+08
  +9.24520438491e+08
  +9.26406081360e+08
  +9.28295570168e+08
  +9.30188912759e+08
  +9.32086116992e+08
  +9.33987190745e+08
  +9.35892141910e+08
  +9.37800978394e+08
  +9.39713708123e+08
  +9.41630339036e+08
  +9.43550879091e+08
  +9.45475336261e+08
  +9.47403718535e+08
  +9.49336033919e+08
  +9.51272290434e+08
  +9.53212496120e+08
  +9.55156659030e+08
  +9.57104787235e+08
  +9.59056888824e+08
  +9.61012971900e+08
  +9.62973044584e+08
  +9.64937115013e+08
  +9.66905191342e+08
  +9.68877281739e+08
  +9.70853394393e+08
  +9.72833537507e+08
  +9.74817719301e+08
  +9.76805948014e+08
  +9.78798231898e+08
  +9.80794579225e+08
  +9.82794998282e+08
  +9.84799497375e+08
  +9.86808084824e+08
  +9.88820768969e+08
  +9.90837558165e+08
  +9.92858460784e+08
  +9.94883485217e+08
  +9.96912639870e+08
  +9.98945933167e+08
  +1.00098337355e+09
  +1.00302496947e+09
  +1.00507072942e+09
  +1.00712066188e+09
  +1.00917477535e+09
  +1.01123307838e+09
  +1.01329557951e+09
  +1.01536228729e+09
  +1.01743321030e+09
  +1.01950835716e+09
  +1.02158773646e+09
  +1.02367135684e+09
  +1.02575922696e+09
  +1.02785135547e+09
  +1.02994775107e+09
  +1.03204842246e+09
  +1.03415337835e+09
  +1.03626262750e+09
  +1.03837617865e+09
  +1.04049404057e+09
  +1.04261622207e+09
  +1.04474273195e+09
  +1.04687357903e+09
  +1.04900877217e+09
  +1.05114832023e+09
  +1.05329223209e+09
  +1.05544051666e+09
  +1.05759318284e+09
  +1.05975023958e+09
  +1.06191169583e+09
  +1.06407756057e+09
  +1.06624784278e+09
  +1.06842255148e+09
  +1.07060169570e+09
  +1.07278528448e+09
  +1.07497332688e+09
  +1.07716583199e+09
  +1.07936280892e+09
  +1.08156426677e+09
  +1.08377021470e+09
  +1.08598066186e+09
  +1.08819561743e+09
  +1.09041509060e+09
  +1.09263909058e+09
  +1.09486762661e+09
  +1.09710070794e+09
  +1.09933834385e+09
  +1.10158054361e+09
  +1.10382731654e+09
  +1.10607867197e+09
  +1.10833461924e+09
  +1.11059516772e+09
  +1.11286032679e+09
  +1.11513010586e+09
  +1.11740451435e+09
  +1.11968356170e+09
  +1.12196725737e+09
  +1.12425561084e+09
  +1.12654863162e+09
  +1.12884632922e+09
  +1.13114871319e+09
  +1.13345579307e+09
  +1.13576757845e+09
  +1.13808407892e+09
  +1.14040530411e+09
  +1.14273126365e+09
  +1.14506196719e+09
  +1.14739742441e+09
  +1.14973764500e+09
  +1.15208263869e+09
  +1.15443241520e+09
  +1.15678698429e+09
  +1.15914635574e+09
  +1.16151053935e+09
  +1.16387954491e+09
  +1.16625338228e+09
  +1.16863206130e+09
  +1.17101559186e+09
  +1.17340398384e+09
  +1.17579724716e+09
  +1.17819539176e+09
  +1.18059842758e+09
  +1.18300636462e+09
  +1.18541921287e+09
  +1.18783698233e+09
  +1.19025968305e+09
  +1.19268732509e+09
  +1.19511991853e+09
  +1.19755747346e+09
  +1.20000000000e+09
</indep>
<dep S[2,2] frequency>
  -9.75281810384e-01+j2.20895747550e-01
  -9.74799903509e-01+j2.23008737457e-01
  -9.74303770765e-01+j2.25162153144e-01
  -9.73792837551e-01+j2.27357192153e-01
  -9.73266499464e-01+j2.29595100483e-01
  -9.72724120397e-01+j2.31877175098e-01
  -9.72165030484e-01+j2.34204766595e-01
  -9.71588523895e-01+j2.36579282042e-01
  -9.70993856447e-01+j2.39002188000e-01
  -9.70380243030e-01+j2.41475013741e-01
  -9.69746854829e-01+j2.43999354686e-01
  -9.69092816314e-01+j2.46576876069e-01
  -9.68417201984e-01+j2.49209316847e-01
  -9.67719032835e-01+j2.51898493886e-01
  -9.66997272532e-01+j2.54646306434e-01
  -9.66250823250e-01+j2.57454740908e-01
  -9.65478521150e-01+j2.60325876027e-01
  -9.64679131458e-01+j2.63261888309e-01
  -9.63851343095e-01+j2.66265057973e-01
  -9.62993762828e-01+j2.69337775280e-01
  -9.62104908868e-01+j2.72482547344e-01
  -9.61183203878e-01+j2.75702005464e-01
  -9.60226967305e-01+j2.78998913015e-01
  -9.59234406971e-01+j2.82376173957e-01
  -9.58203609844e-01+j2.85836842018e-01
  -9.57132531877e-01+j2.89384130599e-01
  -9.56018986815e-01+j2.93021423494e-01
  -9.54860633852e-01+j2.96752286484e-01
  -9.53654963981e-01+j3.00580479891e-01
  -9.52399284895e-01+j3.04509972194e-01
  -9.51090704231e-01+j3.08544954805e-01
  -9.49726110975e-01+j3.12689858125e-01
  -9.48302154750e-01+j3.16949369001e-01
  -9.46815222741e-01+j3.21328449739e-01
  -9.45261413908e-01+j3.25832358820e-01
  -9.43636510122e-01+j3.30466673503e-01
  -9.41935943794e-01+j3.35237314519e-01
  -9.40154761479e-01+j3.40150573056e-01
  -9.38287582870e-01+j3.45213140304e-01
  -9.36328554497e-01+j3.50432139806e-01
  -9.34271297303e-01+j3.55815162945e-01
  -9.32108847148e-01+j3.61370307876e-01
  -9.29833587116e-01+j3.67106222286e-01
  -9.27437170277e-01+j3.73032150390e-01
  -9.24910431306e-01+j3.79157984601e-01
  -9.22243285066e-01+j3.85494322368e-01
  -9.19424609871e-01+j3.92052528706e-01
  -9.16442112687e-01+j3.98844804966e-01
  -9.13282172961e-01+j4.05884264448e-01
  -9.09929661072e-01+j4.13185015431e-01
  -9.06367726527e-01+j4.20762252212e-01
  -9.02577549940e-01+j4.28632354672e-01
  -8.98538051478e-01+j4.36812996779e-01
  -8.94225546761e-01+j4.45323264217e-01
  -8.89613339057e-01+j4.54183780993e-01
  -8.84671233889e-01+j4.63416844292e-01
  -8.79364958698e-01+j4.73046565985e-01
  -8.73655465793e-01+j4.83099017843e-01
  -8.67498091109e-01+j4.93602375472e-01
  -8.60841533956e-01+j5.04587052900e-01
  -8.53626613442e-01+j5.16085815124e-01
  -8.45784744912e-01+j5.28133848991e-01
  -8.37236063701e-01+j5.40768762303e-01
  -8.27887102591e-01+j5.54030465333e-01
  -8.17627902170e-01+j5.67960865077e-01
  -8.06328398082e-01+j5.82603266367e-01
  -7.93833883874e-01+j5.98001318624e-01
  -7.79959290950e-01+j6.14197262005e-01
  -7.64481956870e-01+j6.31229095222e-01
  -7.47132471556e-01+j6.49126082993e-01
  -7.27583106305e-01+j6.67901701783e-01
  -7.05433267159e-01+j6.87542622065e-01
  -6.80191430606e-01+j7.07991540342e-01
  -6.51253247830e-01+j7.29120448107e-01
  -6.17876227852e-01+j7.50689034476e-01
  -5.79153223811e-01+j7.72280086187e-01
  -5.33991054448e-01+j7.93199752739e-01
  -4.81109335655e-01+j8.12325641914e-01
  -4.19092207840e-01+j8.27881891476e-01
  -3.46558688489e-01+j8.37124626785e-01
  -2.62572203148e-01+j8.35952884327e-01
  -1.67478152078e-01+j8.18562804587e-01
  -6.43704116917e-02+j7.77507687568e-01
  +3.88817476753e-02+j7.04937731889e-01
  +1.28062776728e-01+j5.96042003972e-01
  +1.84086508613e-01+j4.54654499706e-01
  +1.90141770174e-01+j2.97514566783e-01
  +1.42027683486e-01+j1.50887205768e-01
  +5.24476291374e-02+j3.86722763590e-02
  -5.61015529370e-02-j2.83456489419e-02
  -1.62803871155e-01-j5.32798469715e-02
  -2.54821862645e-01-j4.66010473087e-02
  -3.27076548146e-01-j1.96625306123e-02
  -3.79328811795e-01+j1.84500477282e-02
  -4.13514661911e-01+j6.14624036248e-02
  -4.32152673118e-01+j1.05356809262e-01
  -4.37614542789e-01+j1.47625202900e-01
  -4.31887228716e-01+j1.86658864246e-01
  -4.16567599749e-01+j2.21326390337e-01
  -3.92952496491e-01+j2.50705179307e-01
  -3.62162561162e-01+j2.73922488156e-01
  -3.25275449529e-01+j2.90075076567e-01
  -2.83458512049e-01+j2.98211447268e-01
  -2.38092854685e-01+j2.97371835663e-01
  -1.90875367634e-01+j2.86686400258e-01
  -1.43876634882e-01+j2.65529854617e-01
  -9.95252350652e-02+j2.33719535888e-01
  -6.04895002813e-02+j1.91724241667e-01
  -2.94436357745e-02+j1.40828934597e-01
  -8.73909658811e-03+j8.31881946565e-02
  -4.59088764630e-05+j2.17142726052e-02
  -4.06077760819e-03-j4.02096332496e-02
  -2.03750230344e-02-j9.91370212133e-02
  -4.75477560693e-02-j1.51982642315e-01
  -8.33584551648e-02-j1.96352643461e-01
  -1.25155405879e-01-j2.30709095275e-01
  -1.70199625635e-01-j2.54360873846e-01
  -2.15927811283e-01-j2.67325415298e-01
  -2.60100905506e-01-j2.70128178164e-01
  -3.00843187770e-01-j2.63600452975e-01
  -3.36598008861e-01-j2.48715571078e-01
  -3.66030758383e-01-j2.26482743556e-01
  -3.87904264432e-01-j1.97904597295e-01
  -4.00944101210e-01-j1.64000846932e-01
  -4.03707120510e-01-j1.25905179374e-01
  -3.94471066834e-01-j8.50529761554e-02
  -3.71183198810e-01-j4.34899345748e-02
  -3.31551976368e-01-j4.33530920744e-03
  -2.73449100691e-01+j2.76011541972e-02
  -1.95896933427e-01+j4.51901210831e-02
  -1.00935664198e-01+j3.88329974490e-02
  +3.74727413561e-03-j2.16132395590e-03
  +1.02865404590e-01-j8.54508433108e-02
  +1.75440031493e-01-j2.09294999470e-01
  +2.02760609789e-01-j3.58531741379e-01
  +1.78288469081e-01-j5.08817202141e-01
  +1.10624365520e-01-j6.37749612323e-01
  +1.69999095417e-02-j7.33512043750e-01
  -8.57043071431e-02-j7.95334542702e-01
  -1.85821558927e-01-j8.28849544740e-01
  -2.77239349364e-01-j8.41471921486e-01
  -3.57760690916e-01-j8.39863197059e-01
  -4.27375623901e-01-j8.29124960988e-01
  -4.87071563715e-01-j8.12851245823e-01
  -5.38164239406e-01-j7.93455585714e-01
  -5.81971795162e-01-j7.72510561617e-01
  -6.19679772093e-01-j7.51018019568e-01
  -6.52301279438e-01-j7.29602421954e-01
  -6.80679995911e-01-j7.08642299972e-01
  -7.05509676279e-01-j6.88357352478e-01
  -7.27357844523e-01-j6.68865433117e-01
  -7.46688409678e-01-j6.50219626962e-01
  -7.63881312693e-01-j6.32432323012e-01
  -7.79248831814e-01-j6.15490832622e-01
  -7.93048796180e-01-j5.99367514166e-01
  -8.05495162719e-01-j5.84026321350e-01
  -8.16766434332e-01-j5.69427017180e-01
  -8.27012348732e-01-j5.55527860256e-01
  -8.36359197748e-01-j5.42287289385e-01
  -8.44914067997e-01-j5.29664951062e-01
  -8.52768233556e-01-j5.17622296493e-01
  -8.59999881557e-01-j5.06122897918e-01
  -8.66676311919e-01-j4.95132583454e-01
  -8.72855721207e-01-j4.84619456351e-01
  -8.78588656389e-01-j4.74553842412e-01
  -8.83919205395e-01-j4.64908194609e-01
  -8.88885976953e-01-j4.55656974034e-01
  -8.93522910866e-01-j4.46776519723e-01
  -8.97859951251e-01-j4.38244915455e-01
  -9.01923608490e-01-j4.30041858627e-01
  -9.05737430383e-01-j4.22148534313e-01
  -9.09322398882e-01-j4.14547496271e-01
  -9.12697265565e-01-j4.07222555812e-01
  -9.15878836442e-01-j4.00158678811e-01
  -9.18882214696e-01-j3.93341890836e-01
  -9.21721008341e-01-j3.86759190082e-01
  -9.24407508516e-01-j3.80398467723e-01
  -9.26952843091e-01-j3.74248435165e-01
  -9.29367109452e-01-j3.68298557711e-01
  -9.31659489651e-01-j3.62538994093e-01
  -9.33838350581e-01-j3.56960541399e-01
  -9.35911331368e-01-j3.51554584890e-01
  -9.37885419853e-01-j3.46313052280e-01
  -9.39767019680e-01-j3.41228372056e-01
  -9.41562009334e-01-j3.36293435471e-01
  -9.43275794201e-01-j3.31501561842e-01
  -9.44913352597e-01-j3.26846466872e-01
  -9.46479276571e-01-j3.22322233677e-01
  -9.47977808142e-01-j3.17923286289e-01
  -9.49412871562e-01-j3.13644365382e-01
  -9.50788102102e-01-j3.09480506026e-01
  -9.52106871784e-01-j3.05427017276e-01
  -9.53372312431e-01-j3.01479463419e-01
  -9.54587336355e-01-j2.97633646738e-01
  -9.55754654959e-01-j2.93885591648e-01
  -9.56876795493e-01-j2.90231530086e-01
  -9.57956116173e-01-j2.86667888026e-01
  -9.58994819845e-01-j2.83191273050e-01
  -9.59994966356e-01-j2.79798462846e-01
  -9.60958483775e-01-j2.76486394582e-01
</dep>
<dep S[2,1] frequency>
  -1.21913592479e-03-j5.38263459128e-03
  -1.26648892330e-03-j5.53598614257e-03
  -1.31615380016e-03-j5.69515610196e-03
  -1.36826765518e-03-j5.86042266728e-03
  -1.42297721017e-03-j6.03208014998e-03
  -1.48043959260e-03-j6.21044007414e-03
  -1.54082319208e-03-j6.39583236190e-03
  -1.60430859754e-03-j6.58860661299e-03
  -1.67108962346e-03-j6.78913348676e-03
  -1.74137443493e-03-j6.99780619618e-03
  -1.81538678211e-03-j7.21504212385e-03
  -1.89336735625e-03-j7.44128457152e-03
  -1.97557528068e-03-j7.67700465548e-03
  -2.06228975206e-03-j7.92270336158e-03
  -2.15381184898e-03-j8.17891377525e-03
  -2.25046652715e-03-j8.44620350312e-03
  -2.35260482309e-03-j8.72517730512e-03
  -2.46060629085e-03-j9.01647995752e-03
  -2.57488169975e-03-j9.32079937002e-03
  -2.69587602475e-03-j9.63886998210e-03
  -2.82407176546e-03-j9.97147646713e-03
  -2.95999263464e-03-j1.03194577755e-02
  -3.10420766285e-03-j1.06837115520e-02
  -3.25733577257e-03-j1.10651989660e-02
  -3.42005088250e-03-j1.14649499985e-02
  -3.59308761197e-03-j1.18840692341e-02
  -3.77724766532e-03-j1.23237422127e-02
  -3.97340698853e-03-j1.27852424005e-02
  -4.18252380388e-03-j1.32699388496e-02
  -4.40564764534e-03-j1.37793046208e-02
  -4.64392953599e-03-j1.43149260554e-02
  -4.89863347201e-03-j1.48785129916e-02
  -5.17114940352e-03-j1.54719100320e-02
  -5.46300793470e-03-j1.60971089822e-02
  -5.77589700205e-03-j1.67562625963e-02
  -6.11168083400e-03-j1.74516997797e-02
  -6.47242154733e-03-j1.81859424198e-02
  -6.86040379814e-03-j1.89617240345e-02
  -7.27816298007e-03-j1.97820104539e-02
  -7.72851755154e-03-j2.06500227732e-02
  -8.21460618206e-03-j2.15692628471e-02
  -8.73993053724e-03-j2.25435416238e-02
  -9.30840467966e-03-j2.35770106530e-02
  -9.92441225420e-03-j2.46741971384e-02
  -1.05928728589e-02-j2.58400429441e-02
  -1.13193192879e-02-j2.70799480019e-02
  -1.21099876820e-02-j2.83998186081e-02
  -1.29719230543e-02-j2.98061211316e-02
  -1.39131031887e-02-j3.13059416829e-02
  -1.49425845724e-02-j3.29070523075e-02
  -1.60706748457e-02-j3.46179842585e-02
  -1.73091372828e-02-j3.64481088513e-02
  -1.86714341113e-02-j3.84077263002e-02
  -2.01730171125e-02-j4.05081627365e-02
  -2.18316760115e-02-j4.27618752729e-02
  -2.36679577984e-02-j4.51825644385e-02
  -2.57056734849e-02-j4.77852924591e-02
  -2.79725131148e-02-j5.05866045511e-02
  -3.05007954017e-02-j5.36046484034e-02
  -3.33283855567e-02-j5.68592840066e-02
  -3.64998241849e-02-j6.03721714434e-02
  -4.00677222638e-02-j6.41668174059e-02
  -4.40944930206e-02-j6.82685508872e-02
  -4.86545121519e-02-j7.27043829065e-02
  -5.38368246942e-02-j7.75026815065e-02
  -5.97485517105e-02-j8.26925573021e-02
  -6.65191947874e-02-j8.83027998529e-02
  -7.43060930596e-02-j9.43601205041e-02
  -8.33013571757e-02-j1.00886326416e-01
  -9.37406856514e-02-j1.07893846806e-01
  -1.05914552954e-01-j1.15378714016e-01
  -1.20182321211e-01-j1.23309602613e-01
  -1.36989810013e-01-j1.31610746092e-01
  -1.56890629499e-01-j1.40135326448e-01
  -1.80570856609e-01-j1.48624043535e-01
  -2.08874819215e-01-j1.56640740950e-01
  -2.42825643674e-01-j1.63472972684e-01
  -2.83625477207e-01-j1.67980496827e-01
  -3.32602684353e-01-j1.68370868785e-01
  -3.91040272077e-01-j1.61885577728e-01
  -4.59764973717e-01-j1.44411849451e-01
  -5.38308118278e-01-j1.10137974011e-01
  -6.23437371437e-01-j5.16148211845e-02
  -7.07127856331e-01+j3.90025468070e-02
  -7.74989100473e-01+j1.66510506775e-01
  -8.07738333059e-01+j3.27047746591e-01
  -7.88343568154e-01+j5.03830932295e-01
  -7.12356280163e-01+j6.70529431398e-01
  -5.92202760953e-01+j8.03149793724e-01
  -4.50070930335e-01+j8.90777917111e-01
  -3.06434164827e-01+j9.36351568627e-01
  -1.73752758518e-01+j9.50107435828e-01
  -5.66948296493e-02+j9.43090670526e-01
  +4.49414311764e-02+j9.23985668744e-01
  +1.33555133508e-01+j8.98549399665e-01
  +2.12135904583e-01+j8.70139280717e-01
  +2.83511094026e-01+j8.40429515767e-01
  +3.50071845391e-01+j8.09988637658e-01
  +4.13714649569e-01+j7.78669539992e-01
  +4.75856619942e-01+j7.45852348543e-01
  +5.37458834518e-01+j7.10593238761e-01
  +5.99031928079e-01+j6.71723961929e-01
  +6.60618419631e-01+j6.27936707248e-01
  +7.21758487648e-01+j5.77881016655e-01
  +7.81456016100e-01+j5.20292222543e-01
  +8.38171391705e-01+j4.54160905813e-01
  +8.89874531398e-01+j3.78936966393e-01
  +9.34190277792e-01+j2.94739478848e-01
  +9.68651677842e-01+j2.02519654618e-01
  +9.91041996153e-01+j1.04111067238e-01
  +9.99761981891e-01+j2.11372262759e-03
  +9.94126320496e-01-j1.00396983900e-01
  +9.74496642417e-01-j2.00282309205e-01
  +9.42205777866e-01-j2.94768993424e-01
  +8.99298891057e-01-j3.81783331096e-01
  +8.48174508463e-01-j4.60118942155e-01
  +7.91224928048e-01-j5.29429642659e-01
  +7.30551141399e-01-j5.90090952694e-01
  +6.67783808438e-01-j6.42995389957e-01
  +6.04002889860e-01-j6.89339311663e-01
  +5.39726682393e-01-j7.30436481460e-01
  +4.74936096005e-01-j7.67569381555e-01
  +4.09105796626e-01-j8.01870624959e-01
  +3.41224266384e-01-j8.34214330937e-01
  +2.69797330529e-01-j8.65088346411e-01
  +1.92846127728e-01-j8.94409827595e-01
  +1.07937590357e-01-j9.21238913149e-01
  +1.23350135615e-02-j9.43346351825e-01
  -9.65593925164e-02-j9.56629525645e-01
  -2.20190465777e-01-j9.54514747509e-01
  -3.56966386652e-01-j9.27835647517e-01
  -4.99619788108e-01-j8.66234006459e-01
  -6.33251273543e-01-j7.62305507308e-01
  -7.37234707011e-01-j6.17981703066e-01
  -7.93178030876e-01-j4.48566312686e-01
  -7.94828621425e-01-j2.78506264134e-01
  -7.51043117218e-01-j1.30276313328e-01
  -6.79281415081e-01-j1.57430579473e-02
  -5.96627432382e-01+j6.42918645795e-02
  -5.14928824663e-01+j1.15442998724e-01
  -4.40459038524e-01+j1.45117827635e-01
  -3.75558258348e-01+j1.59978413694e-01
  -3.20363908610e-01+j1.65132798745e-01
  -2.74002122247e-01+j1.64185812385e-01
  -2.35258420619e-01+j1.59564909840e-01
  -2.02905047136e-01+j1.52858770347e-01
  -1.75837253056e-01+j1.45086783619e-01
  -1.53114242965e-01+j1.36891838048e-01
  -1.33957155458e-01+j1.28671342415e-01
  -1.17730419285e-01+j1.20663997703e-01
  -1.03918817699e-01+j1.13006538392e-01
  -9.21055377170e-02+j1.05770626768e-01
  -8.19531073602e-02+j9.89867926602e-02
  -7.31876035069e-02+j9.26599577333e-02
  -6.55858895995e-02+j8.67794959920e-02
  -5.89654359457e-02+j8.13257411277e-02
  -5.31762514716e-02+j7.62741773664e-02
  -4.80945035361e-02+j7.15981162713e-02
  -4.36174711932e-02+j6.72703821923e-02
  -3.96595455264e-02+j6.32643482987e-02
  -3.61490503611e-02+j5.95545478430e-02
  -3.30257058486e-02+j5.61170088035e-02
  -3.02385966920e-02+j5.29294098881e-02
  -2.77445375957e-02+j4.99711228166e-02
  -2.55067524540e-02+j4.72231838931e-02
  -2.34938022924e-02+j4.46682233068e-02
  -2.16787112461e-02+j4.22903708780e-02
  -2.00382508701e-02+j4.00751504516e-02
  -1.85523515825e-02+j3.80093707879e-02
  -1.72036166290e-02+j3.60810178772e-02
  -1.59769190778e-02+j3.42791516605e-02
  -1.48590663407e-02+j3.25938088437e-02
  -1.38385198392e-02+j3.10159126416e-02
  -1.29051598863e-02+j2.95371897365e-02
  -1.20500877872e-02+j2.81500943864e-02
  -1.12654586950e-02+j2.68477394049e-02
  -1.05443399716e-02+j2.56238336092e-02
  -9.88059077884e-03+j2.44726252758e-02
  -9.26875939991e-03+j2.33888511137e-02
  -8.70399542100e-03+j2.23676902733e-02
  -8.18197440501e-03+j2.14047229224e-02
  -7.69883310204e-03+j2.04958929515e-02
  -7.25111357302e-03+j1.96374743980e-02
  -6.83571487586e-03+j1.88260412156e-02
  -6.44985118625e-03+j1.80584400475e-02
  -6.09101540831e-03+j1.73317656932e-02
